(1727245316.352623) vcan0 5FC#0000000000
(1727245316.352669) vcan0 5FB#0000000000000000
(1727245316.352686) vcan0 5FA#0000000000000000
(1727245316.352700) vcan0 3F9#00000000
(1727245316.352709) vcan0 4F4#0000000000000000
(1727245316.352725) vcan0 4F1#00000000
(1727245316.352732) vcan0 5D4#0000000000000000
(1727245316.352739) vcan0 5D3#0000000000000000
(1727245316.352751) vcan0 5D2#0000000000000000
(1727245316.352757) vcan0 5C7#0000000000000000
(1727245316.352769) vcan0 5C0#0000000000000000
(1727245316.352776) vcan0 7C0#0000
(1727245316.352783) vcan0 5B0#00000000
(1727245316.352795) vcan0 2B0#0000000000
(1727245316.352811) vcan0 5A1#0000000000000000
(1727245316.352818) vcan0 5A0#0000000000000000
(1727245316.352829) vcan0 59D#0000000000000000
(1727245316.352836) vcan0 59A#0000
(1727245316.352842) vcan0 394#0000000000000000
(1727245316.352853) vcan0 593#000000000000
(1727245316.352869) vcan0 393#00000000
(1727245316.352876) vcan0 492#0000000000000000
(1727245316.352882) vcan0 591#0000
(1727245316.352893) vcan0 390#00000000000000
(1727245316.352900) vcan0 490#00000000000000
(1727245316.352911) vcan0 18F#0000000000000000
(1727245316.352917) vcan0 58B#0000000000000000
(1727245316.352924) vcan0 38A#0000000000000000
(1727245316.352935) vcan0 387#000000000000
(1727245316.352956) vcan0 587#0000000000000000
(1727245316.352963) vcan0 386#0000000000000000
(1727245316.352969) vcan0 586#000000
(1727245316.352980) vcan0 584#0000000000000000
(1727245316.352987) vcan0 384#0000000000000000
(1727245316.352998) vcan0 183#0000000000000000
(1727245316.353005) vcan0 583#0000000000000000
(1727245316.353011) vcan0 383#0000000000000000
(1727245316.353024) vcan0 081#0000000000000000
(1727245316.353046) vcan0 381#0000000000000000
(1727245316.353052) vcan0 380#0000000000000000
(1727245316.353059) vcan0 280#0000000000000000
(1727245316.353070) vcan0 080#0000000000000000
(1727245316.353077) vcan0 57F#0000000000000000
(1727245316.353083) vcan0 07F#0000000000000000
(1727245316.353109) vcan0 47F#000000000000
(1727245316.353116) vcan0 575#0000000000000000
(1727245316.353122) vcan0 573#0000000000000000
(1727245316.353134) vcan0 571#0000000000
(1727245316.353140) vcan0 271#0000000000000000
(1727245316.353151) vcan0 164#00000000
(1727245316.353158) vcan0 563#0000000000000000
(1727245316.353164) vcan0 162#000000
(1727245316.353175) vcan0 562#00000000
(1727245316.353188) vcan0 260#0000000000000000
(1727245316.353201) vcan0 55B#0000000000000000
(1727245316.353213) vcan0 55A#0000000000000000
(1727245316.353226) vcan0 559#0000000000000000
(1727245316.353239) vcan0 557#0000000000000000
(1727245316.353251) vcan0 556#0000000000000000
(1727245316.353264) vcan0 555#0000000000000000
(1727245316.353276) vcan0 367#0000000000000000
(1727245316.353289) vcan0 368#0000000000000000
(1727245316.353301) vcan0 553#0000000000000000
(1727245316.353313) vcan0 153#0000000000000000
(1727245316.353325) vcan0 552#00000000
(1727245316.353338) vcan0 251#0000000000000000
(1727245316.353351) vcan0 550#000000
(1727245316.353361) vcan0 54C#0000000000000000
(1727245316.353374) vcan0 549#0000000000000000
(1727245316.353386) vcan0 547#0000000000000000
(1727245316.353399) vcan0 546#0000000000000000
(1727245316.353411) vcan0 545#0000000000000000
(1727245316.353424) vcan0 044#0000000000000000
(1727245316.353444) vcan0 043#0000000000000000
(1727245316.353451) vcan0 042#0000000000000000
(1727245316.353457) vcan0 541#0000000000000000
(1727245316.353469) vcan0 040#0000000000000000
(1727245316.353476) vcan0 340#0000000000000000
(1727245316.353485) vcan0 53E#000000000000
(1727245316.353496) vcan0 53E#000001000000
(1727245316.353501) vcan0 53E#000002000000
(1727245316.353511) vcan0 53E#000003000000
(1727245316.353517) vcan0 53E#000004000000
(1727245316.353522) vcan0 53E#000005000000
(1727245316.353527) vcan0 53E#000006000000
(1727245316.353539) vcan0 53E#000007000000
(1727245316.353545) vcan0 53E#000008000000
(1727245316.353550) vcan0 53E#000009000000
(1727245316.353555) vcan0 53E#00000A000000
(1727245316.353565) vcan0 53E#00000B000000
(1727245316.353570) vcan0 53E#00000C000000
(1727245316.353580) vcan0 53E#00000D000000
(1727245316.353586) vcan0 53E#00000E000000
(1727245316.353605) vcan0 53E#00000F000000
(1727245316.353628) vcan0 53E#000010000000
(1727245316.353648) vcan0 53E#000011000000
(1727245316.353663) vcan0 53E#000012000000
(1727245316.353673) vcan0 53E#000013000000
(1727245316.353678) vcan0 53E#000014000000
(1727245316.353691) vcan0 53E#000015000000
(1727245316.353696) vcan0 53E#000016000000
(1727245316.353707) vcan0 53E#000017000000
(1727245316.353712) vcan0 53E#000018000000
(1727245316.353722) vcan0 53E#000019000000
(1727245316.353728) vcan0 53E#00001A000000
(1727245316.353733) vcan0 53E#00001B000000
(1727245316.353739) vcan0 53E#00001C000000
(1727245316.353749) vcan0 53E#00001D000000
(1727245316.353755) vcan0 53E#00001E000000
(1727245316.353765) vcan0 53E#00001F000000
(1727245316.353770) vcan0 53E#000020000000
(1727245316.353775) vcan0 53E#000021000000
(1727245316.353781) vcan0 53E#000022000000
(1727245316.353790) vcan0 53E#000023000000
(1727245316.353796) vcan0 53E#000024000000
(1727245316.353806) vcan0 53E#000025000000
(1727245316.353811) vcan0 53E#000026000000
(1727245316.353817) vcan0 53E#000027000000
(1727245316.353822) vcan0 53E#000028000000
(1727245316.353832) vcan0 53E#000029000000
(1727245316.353838) vcan0 53E#00002A000000
(1727245316.353848) vcan0 53E#00002B000000
(1727245316.353853) vcan0 53E#00002C000000
(1727245316.353859) vcan0 53E#00002D000000
(1727245316.353864) vcan0 53E#00002E000000
(1727245316.353873) vcan0 53E#00002F000000
(1727245316.353879) vcan0 53E#000030000000
(1727245316.353889) vcan0 53E#000031000000
(1727245316.353895) vcan0 53E#000032000000
(1727245316.353900) vcan0 53E#000033000000
(1727245316.353905) vcan0 53E#000034000000
(1727245316.353916) vcan0 53E#000035000000
(1727245316.353921) vcan0 53E#000036000000
(1727245316.353931) vcan0 53E#000037000000
(1727245316.353937) vcan0 53E#000038000000
(1727245316.353942) vcan0 53E#000039000000
(1727245316.353948) vcan0 53E#00003A000000
(1727245316.353958) vcan0 53E#00003B000000
(1727245316.353963) vcan0 53E#00003C000000
(1727245316.353969) vcan0 53E#00003D000000
(1727245316.353974) vcan0 53E#00003E000000
(1727245316.353984) vcan0 53E#00003F000000
(1727245316.353989) vcan0 53E#000040000000
(1727245316.353999) vcan0 53E#000041000000
(1727245316.354004) vcan0 53E#000042000000
(1727245316.354010) vcan0 53E#000043000000
(1727245316.354015) vcan0 53E#000044000000
(1727245316.354025) vcan0 53E#000045000000
(1727245316.354031) vcan0 53E#000046000000
(1727245316.354041) vcan0 53E#000047000000
(1727245316.354047) vcan0 53E#000048000000
(1727245316.354053) vcan0 53E#000049000000
(1727245316.354058) vcan0 53E#00004A000000
(1727245316.354068) vcan0 53E#00004B000000
(1727245316.354074) vcan0 53E#00004C000000
(1727245316.354084) vcan0 53E#00004D000000
(1727245316.354090) vcan0 53E#00004E000000
(1727245316.354096) vcan0 53E#00004F000000
(1727245316.354101) vcan0 53E#000050000000
(1727245316.354110) vcan0 53E#000051000000
(1727245316.354116) vcan0 53E#000052000000
(1727245316.354126) vcan0 53E#000053000000
(1727245316.354131) vcan0 53E#000054000000
(1727245316.354140) vcan0 53E#000055000000
(1727245316.354146) vcan0 53E#000056000000
(1727245316.354156) vcan0 53E#000057000000
(1727245316.354161) vcan0 53E#000058000000
(1727245316.354172) vcan0 53E#000059000000
(1727245316.354177) vcan0 53E#00005A000000
(1727245316.354182) vcan0 53E#00005B000000
(1727245316.354188) vcan0 53E#00005C000000
(1727245316.354198) vcan0 53E#00005D000000
(1727245316.354204) vcan0 53E#00005E000000
(1727245316.354214) vcan0 53E#00005F000000
(1727245316.354219) vcan0 53E#000060000000
(1727245316.354225) vcan0 53E#000061000000
(1727245316.354230) vcan0 53E#000062000000
(1727245316.354240) vcan0 53E#000063000000
(1727245316.354246) vcan0 53E#000064000000
(1727245316.354256) vcan0 53E#000063000000
(1727245316.354262) vcan0 53E#000062000000
(1727245316.354268) vcan0 53E#000061000000
(1727245316.354281) vcan0 53E#000060000000
(1727245316.354287) vcan0 53E#00005F000000
(1727245316.354297) vcan0 53E#00005E000000
(1727245316.354302) vcan0 53E#00005D000000
(1727245316.354308) vcan0 53E#00005C000000
(1727245316.354313) vcan0 53E#00005B000000
(1727245316.354318) vcan0 53E#00005A000000
(1727245316.354328) vcan0 53E#000059000000
(1727245316.354346) vcan0 53E#000058000000
(1727245316.354351) vcan0 53E#000057000000
(1727245316.354357) vcan0 53E#000056000000
(1727245316.354373) vcan0 53E#000055000000
(1727245316.354379) vcan0 53E#000054000000
(1727245316.354385) vcan0 53E#000053000000
(1727245316.354402) vcan0 53E#000052000000
(1727245316.354407) vcan0 53E#000051000000
(1727245316.354413) vcan0 53E#000050000000
(1727245316.354418) vcan0 53E#00004F000000
(1727245316.354429) vcan0 53E#00004E000000
(1727245316.354434) vcan0 53E#00004D000000
(1727245316.354444) vcan0 53E#00004C000000
(1727245316.354449) vcan0 53E#00004B000000
(1727245316.354460) vcan0 53E#00004A000000
(1727245316.354466) vcan0 53E#000049000000
(1727245316.354471) vcan0 53E#000048000000
(1727245316.354476) vcan0 53E#000047000000
(1727245316.354488) vcan0 53E#000046000000
(1727245316.354493) vcan0 53E#000045000000
(1727245316.354502) vcan0 53E#000044000000
(1727245316.354508) vcan0 53E#000043000000
(1727245316.354518) vcan0 53E#000042000000
(1727245316.354524) vcan0 53E#000041000000
(1727245316.354530) vcan0 53E#000040000000
(1727245316.354535) vcan0 53E#00003F000000
(1727245316.354545) vcan0 53E#00003E000000
(1727245316.354551) vcan0 53E#00003D000000
(1727245316.354556) vcan0 53E#00003C000000
(1727245316.354561) vcan0 53E#00003B000000
(1727245316.354571) vcan0 53E#00003A000000
(1727245316.354577) vcan0 53E#000039000000
(1727245316.354586) vcan0 53E#000038000000
(1727245316.354591) vcan0 53E#000037000000
(1727245316.354602) vcan0 53E#000036000000
(1727245316.354608) vcan0 53E#000035000000
(1727245316.354617) vcan0 53E#000034000000
(1727245316.354623) vcan0 53E#000033000000
(1727245316.354628) vcan0 53E#000032000000
(1727245316.354634) vcan0 53E#000031000000
(1727245316.354643) vcan0 53E#000030000000
(1727245316.354649) vcan0 53E#00002F000000
(1727245316.354660) vcan0 53E#00002E000000
(1727245316.354665) vcan0 53E#00002D000000
(1727245316.354675) vcan0 53E#00002C000000
(1727245316.354681) vcan0 53E#00002B000000
(1727245316.354686) vcan0 53E#00002A000000
(1727245316.354691) vcan0 53E#000029000000
(1727245316.354701) vcan0 53E#000028000000
(1727245316.354706) vcan0 53E#000027000000
(1727245316.354716) vcan0 53E#000026000000
(1727245316.354721) vcan0 53E#000025000000
(1727245316.354732) vcan0 53E#000024000000
(1727245316.354737) vcan0 53E#000023000000
(1727245316.354742) vcan0 53E#000022000000
(1727245316.354748) vcan0 53E#000021000000
(1727245316.354758) vcan0 53E#000020000000
(1727245316.354764) vcan0 53E#00001F000000
(1727245316.354774) vcan0 53E#00001E000000
(1727245316.354779) vcan0 53E#00001D000000
(1727245316.354784) vcan0 53E#00001C000000
(1727245316.354791) vcan0 53E#00001B000000
(1727245316.354801) vcan0 53E#00001A000000
(1727245316.354807) vcan0 53E#000019000000
(1727245316.354817) vcan0 53E#000018000000
(1727245316.354822) vcan0 53E#000017000000
(1727245316.354827) vcan0 53E#000016000000
(1727245316.354833) vcan0 53E#000015000000
(1727245316.354842) vcan0 53E#000014000000
(1727245316.354848) vcan0 53E#000013000000
(1727245316.354858) vcan0 53E#000012000000
(1727245316.354864) vcan0 53E#000011000000
(1727245316.354874) vcan0 53E#000010000000
(1727245316.354880) vcan0 53E#00000F000000
(1727245316.354885) vcan0 53E#00000E000000
(1727245316.354890) vcan0 53E#00000D000000
(1727245316.354900) vcan0 53E#00000C000000
(1727245316.354905) vcan0 53E#00000B000000
(1727245316.354916) vcan0 53E#00000A000000
(1727245316.354922) vcan0 53E#000009000000
(1727245316.354927) vcan0 53E#000008000000
(1727245316.354933) vcan0 53E#000007000000
(1727245316.354944) vcan0 53E#000006000000
(1727245316.354950) vcan0 53E#000005000000
(1727245316.354959) vcan0 53E#000004000000
(1727245316.354965) vcan0 53E#000003000000
(1727245316.354975) vcan0 53E#000002000000
(1727245316.354980) vcan0 53E#000001000000
(1727245316.354986) vcan0 53E#000000000000
(1727245316.354992) vcan0 53E#000000000000
(1727245316.355002) vcan0 53E#000001000000
(1727245316.355008) vcan0 53E#000002000000
(1727245316.355013) vcan0 53E#000003000000
(1727245316.355019) vcan0 53E#000004000000
(1727245316.355024) vcan0 53E#000005000000
(1727245316.355034) vcan0 53E#000006000000
(1727245316.355040) vcan0 53E#000007000000
(1727245316.355050) vcan0 53E#000008000000
(1727245316.355056) vcan0 53E#000009000000
(1727245316.355067) vcan0 53E#00000A000000
(1727245316.355072) vcan0 53E#00000B000000
(1727245316.355077) vcan0 53E#00000C000000
(1727245316.355083) vcan0 53E#00000D000000
(1727245316.355092) vcan0 53E#00000E000000
(1727245316.355098) vcan0 53E#00000F000000
(1727245316.355108) vcan0 53E#000010000000
(1727245316.355113) vcan0 53E#000011000000
(1727245316.355119) vcan0 53E#000012000000
(1727245316.355124) vcan0 53E#000013000000
(1727245316.355135) vcan0 53E#000014000000
(1727245316.355140) vcan0 53E#000015000000
(1727245316.355150) vcan0 53E#000016000000
(1727245316.355156) vcan0 53E#000017000000
(1727245316.355161) vcan0 53E#000018000000
(1727245316.355167) vcan0 53E#000019000000
(1727245316.355177) vcan0 53E#00001A000000
(1727245316.355183) vcan0 53E#00001B000000
(1727245316.355188) vcan0 53E#00001C000000
(1727245316.355194) vcan0 53E#00001D000000
(1727245316.355204) vcan0 53E#00001E000000
(1727245316.355210) vcan0 53E#00001F000000
(1727245316.355215) vcan0 53E#000020000000
(1727245316.355220) vcan0 53E#000021000000
(1727245316.355230) vcan0 53E#000022000000
(1727245316.355235) vcan0 53E#000023000000
(1727245316.355245) vcan0 53E#000024000000
(1727245316.355251) vcan0 53E#000025000000
(1727245316.355256) vcan0 53E#000026000000
(1727245316.355262) vcan0 53E#000027000000
(1727245316.355272) vcan0 53E#000028000000
(1727245316.355278) vcan0 53E#000029000000
(1727245316.355283) vcan0 53E#00002A000000
(1727245316.355288) vcan0 53E#00002B000000
(1727245316.355298) vcan0 53E#00002C000000
(1727245316.355303) vcan0 53E#00002D000000
(1727245316.355313) vcan0 53E#00002E000000
(1727245316.355319) vcan0 53E#00002F000000
(1727245316.355324) vcan0 53E#000030000000
(1727245316.355330) vcan0 53E#000031000000
(1727245316.355340) vcan0 53E#000032000000
(1727245316.355346) vcan0 53E#000033000000
(1727245316.355352) vcan0 53E#000034000000
(1727245316.355357) vcan0 53E#000035000000
(1727245316.355367) vcan0 53E#000036000000
(1727245316.355373) vcan0 53E#000037000000
(1727245316.355378) vcan0 53E#000038000000
(1727245316.355384) vcan0 53E#000039000000
(1727245316.355394) vcan0 53E#00003A000000
(1727245316.355400) vcan0 53E#00003B000000
(1727245316.355410) vcan0 53E#00003C000000
(1727245316.355415) vcan0 53E#00003D000000
(1727245316.355421) vcan0 53E#00003E000000
(1727245316.355426) vcan0 53E#00003F000000
(1727245316.355437) vcan0 53E#000040000000
(1727245316.355442) vcan0 53E#000041000000
(1727245316.355448) vcan0 53E#000042000000
(1727245316.355453) vcan0 53E#000043000000
(1727245316.355464) vcan0 53E#000044000000
(1727245316.355469) vcan0 53E#000045000000
(1727245316.355479) vcan0 53E#000046000000
(1727245316.355484) vcan0 53E#000047000000
(1727245316.355494) vcan0 53E#000048000000
(1727245316.355500) vcan0 53E#000049000000
(1727245316.355506) vcan0 53E#00004A000000
(1727245316.355511) vcan0 53E#00004B000000
(1727245316.355521) vcan0 53E#00004C000000
(1727245316.355527) vcan0 53E#00004D000000
(1727245316.355533) vcan0 53E#00004E000000
(1727245316.355538) vcan0 53E#00004F000000
(1727245316.355548) vcan0 53E#000050000000
(1727245316.355553) vcan0 53E#000051000000
(1727245316.355564) vcan0 53E#000052000000
(1727245316.355569) vcan0 53E#000053000000
(1727245316.355575) vcan0 53E#000054000000
(1727245316.355580) vcan0 53E#000055000000
(1727245316.355590) vcan0 53E#000056000000
(1727245316.355595) vcan0 53E#000057000000
(1727245316.355605) vcan0 53E#000058000000
(1727245316.355611) vcan0 53E#000059000000
(1727245316.355616) vcan0 53E#00005A000000
(1727245316.355622) vcan0 53E#00005B000000
(1727245316.355631) vcan0 53E#00005C000000
(1727245316.355637) vcan0 53E#00005D000000
(1727245316.355647) vcan0 53E#00005E000000
(1727245316.355653) vcan0 53E#00005F000000
(1727245316.355659) vcan0 53E#000060000000
(1727245316.355664) vcan0 53E#000061000000
(1727245316.355674) vcan0 53E#000062000000
(1727245316.355679) vcan0 53E#000063000000
(1727245316.355685) vcan0 53E#000064000000
(1727245316.355696) vcan0 53E#000063000000
(1727245316.355702) vcan0 53E#000062000000
(1727245316.355713) vcan0 53E#000061000000
(1727245316.355718) vcan0 53E#000060000000
(1727245316.355728) vcan0 53E#00005F000000
(1727245316.355734) vcan0 53E#00005E000000
(1727245316.355744) vcan0 53E#00005D000000
(1727245316.355749) vcan0 53E#00005C000000
(1727245316.355755) vcan0 53E#00005B000000
(1727245316.355761) vcan0 53E#00005A000000
(1727245316.355771) vcan0 53E#000059000000
(1727245316.355777) vcan0 53E#000058000000
(1727245316.355782) vcan0 53E#000057000000
(1727245316.355788) vcan0 53E#000056000000
(1727245316.355798) vcan0 53E#000055000000
(1727245316.355804) vcan0 53E#000054000000
(1727245316.355809) vcan0 53E#000053000000
(1727245316.355814) vcan0 53E#000052000000
(1727245316.355825) vcan0 53E#000051000000
(1727245316.355830) vcan0 53E#000050000000
(1727245316.355836) vcan0 53E#00004F000000
(1727245316.355841) vcan0 53E#00004E000000
(1727245316.355852) vcan0 53E#00004D000000
(1727245316.355857) vcan0 53E#00004C000000
(1727245316.355863) vcan0 53E#00004B000000
(1727245316.355868) vcan0 53E#00004A000000
(1727245316.355879) vcan0 53E#000049000000
(1727245316.355884) vcan0 53E#000048000000
(1727245316.355890) vcan0 53E#000047000000
(1727245316.355895) vcan0 53E#000046000000
(1727245316.355907) vcan0 53E#000045000000
(1727245316.355913) vcan0 53E#000044000000
(1727245316.355918) vcan0 53E#000043000000
(1727245316.355923) vcan0 53E#000042000000
(1727245316.355934) vcan0 53E#000041000000
(1727245316.355939) vcan0 53E#000040000000
(1727245316.355949) vcan0 53E#00003F000000
(1727245316.355955) vcan0 53E#00003E000000
(1727245316.355960) vcan0 53E#00003D000000
(1727245316.355966) vcan0 53E#00003C000000
(1727245316.355976) vcan0 53E#00003B000000
(1727245316.355982) vcan0 53E#00003A000000
(1727245316.355987) vcan0 53E#000039000000
(1727245316.355993) vcan0 53E#000038000000
(1727245316.356003) vcan0 53E#000037000000
(1727245316.356008) vcan0 53E#000036000000
(1727245316.356019) vcan0 53E#000035000000
(1727245316.356024) vcan0 53E#000034000000
(1727245316.356030) vcan0 53E#000033000000
(1727245316.356035) vcan0 53E#000032000000
(1727245316.356045) vcan0 53E#000031000000
(1727245316.356051) vcan0 53E#000030000000
(1727245316.356061) vcan0 53E#00002F000000
(1727245316.356066) vcan0 53E#00002E000000
(1727245316.356072) vcan0 53E#00002D000000
(1727245316.356077) vcan0 53E#00002C000000
(1727245316.356087) vcan0 53E#00002B000000
(1727245316.356093) vcan0 53E#00002A000000
(1727245316.356103) vcan0 53E#000029000000
(1727245316.356109) vcan0 53E#000028000000
(1727245316.356119) vcan0 53E#000027000000
(1727245316.356125) vcan0 53E#000026000000
(1727245316.356130) vcan0 53E#000025000000
(1727245316.356135) vcan0 53E#000024000000
(1727245316.356145) vcan0 53E#000023000000
(1727245316.356151) vcan0 53E#000022000000
(1727245316.356161) vcan0 53E#000021000000
(1727245316.356167) vcan0 53E#000020000000
(1727245316.356176) vcan0 53E#00001F000000
(1727245316.356182) vcan0 53E#00001E000000
(1727245316.356191) vcan0 53E#00001D000000
(1727245316.356197) vcan0 53E#00001C000000
(1727245316.356203) vcan0 53E#00001B000000
(1727245316.356220) vcan0 53E#00001A000000
(1727245316.356225) vcan0 53E#000019000000
(1727245316.356231) vcan0 53E#000018000000
(1727245316.356237) vcan0 53E#000017000000
(1727245316.356247) vcan0 53E#000016000000
(1727245316.356253) vcan0 53E#000015000000
(1727245316.356258) vcan0 53E#000014000000
(1727245316.356264) vcan0 53E#000013000000
(1727245316.356274) vcan0 53E#000012000000
(1727245316.356280) vcan0 53E#000011000000
(1727245316.356285) vcan0 53E#000010000000
(1727245316.356291) vcan0 53E#00000F000000
(1727245316.356301) vcan0 53E#00000E000000
(1727245316.356306) vcan0 53E#00000D000000
(1727245316.356316) vcan0 53E#00000C000000
(1727245316.356322) vcan0 53E#00000B000000
(1727245316.356339) vcan0 53E#00000A000000
(1727245316.356345) vcan0 53E#000009000000
(1727245316.356355) vcan0 53E#000008000000
(1727245316.356361) vcan0 53E#000007000000
(1727245316.356372) vcan0 53E#000006000000
(1727245316.356377) vcan0 53E#000005000000
(1727245316.356383) vcan0 53E#000004000000
(1727245316.356394) vcan0 53E#000003000000
(1727245316.356401) vcan0 53E#000002000000
(1727245316.356413) vcan0 53E#000001000000
(1727245316.356419) vcan0 53E#000000000000
(1727245316.356425) vcan0 53E#000000000000
(1727245316.356430) vcan0 53E#000001000000
(1727245316.356440) vcan0 53E#000002000000
(1727245316.356445) vcan0 53E#000003000000
(1727245316.356456) vcan0 53E#000004000000
(1727245316.356462) vcan0 53E#000005000000
(1727245316.356471) vcan0 53E#000006000000
(1727245316.356477) vcan0 53E#000007000000
(1727245316.356487) vcan0 53E#000008000000
(1727245316.356493) vcan0 53E#000009000000
(1727245316.356498) vcan0 53E#00000A000000
(1727245316.356503) vcan0 53E#00000B000000
(1727245316.356516) vcan0 53E#00000C000000
(1727245316.356522) vcan0 53E#00000D000000
(1727245316.356532) vcan0 53E#00000E000000
(1727245316.356538) vcan0 53E#00000F000000
(1727245316.356543) vcan0 53E#000010000000
(1727245316.356548) vcan0 53E#000011000000
(1727245316.356558) vcan0 53E#000012000000
(1727245316.356563) vcan0 53E#000013000000
(1727245316.356573) vcan0 53E#000014000000
(1727245316.356579) vcan0 53E#000015000000
(1727245316.356584) vcan0 53E#000016000000
(1727245316.356590) vcan0 53E#000017000000
(1727245316.356600) vcan0 53E#000018000000
(1727245316.356606) vcan0 53E#000019000000
(1727245316.356616) vcan0 53E#00001A000000
(1727245316.356622) vcan0 53E#00001B000000
(1727245316.356627) vcan0 53E#00001C000000
(1727245316.356633) vcan0 53E#00001D000000
(1727245316.356644) vcan0 53E#00001E000000
(1727245316.356649) vcan0 53E#00001F000000
(1727245316.356659) vcan0 53E#000020000000
(1727245316.356664) vcan0 53E#000021000000
(1727245316.356670) vcan0 53E#000022000000
(1727245316.356675) vcan0 53E#000023000000
(1727245316.356685) vcan0 53E#000024000000
(1727245316.356691) vcan0 53E#000025000000
(1727245316.356701) vcan0 53E#000026000000
(1727245316.356707) vcan0 53E#000027000000
(1727245316.356713) vcan0 53E#000028000000
(1727245316.356718) vcan0 53E#000029000000
(1727245316.356728) vcan0 53E#00002A000000
(1727245316.356734) vcan0 53E#00002B000000
(1727245316.356740) vcan0 53E#00002C000000
(1727245316.356745) vcan0 53E#00002D000000
(1727245316.356755) vcan0 53E#00002E000000
(1727245316.356761) vcan0 53E#00002F000000
(1727245316.356771) vcan0 53E#000030000000
(1727245316.356776) vcan0 53E#000031000000
(1727245316.356786) vcan0 53E#000032000000
(1727245316.356792) vcan0 53E#000033000000
(1727245316.356797) vcan0 53E#000034000000
(1727245316.356802) vcan0 53E#000035000000
(1727245316.356813) vcan0 53E#000036000000
(1727245316.356818) vcan0 53E#000037000000
(1727245316.356828) vcan0 53E#000038000000
(1727245316.356834) vcan0 53E#000039000000
(1727245316.356839) vcan0 53E#00003A000000
(1727245316.356845) vcan0 53E#00003B000000
(1727245316.356855) vcan0 53E#00003C000000
(1727245316.356861) vcan0 53E#00003D000000
(1727245316.356871) vcan0 53E#00003E000000
(1727245316.356876) vcan0 53E#00003F000000
(1727245316.356882) vcan0 53E#000040000000
(1727245316.356887) vcan0 53E#000041000000
(1727245316.356897) vcan0 53E#000042000000
(1727245316.356903) vcan0 53E#000043000000
(1727245316.356909) vcan0 53E#000044000000
(1727245316.356914) vcan0 53E#000045000000
(1727245316.356923) vcan0 53E#000046000000
(1727245316.356929) vcan0 53E#000047000000
(1727245316.356939) vcan0 53E#000048000000
(1727245316.356945) vcan0 53E#000049000000
(1727245316.356950) vcan0 53E#00004A000000
(1727245316.356955) vcan0 53E#00004B000000
(1727245316.356965) vcan0 53E#00004C000000
(1727245316.356971) vcan0 53E#00004D000000
(1727245316.356981) vcan0 53E#00004E000000
(1727245316.356987) vcan0 53E#00004F000000
(1727245316.356992) vcan0 53E#000050000000
(1727245316.356998) vcan0 53E#000051000000
(1727245316.357008) vcan0 53E#000052000000
(1727245316.357014) vcan0 53E#000053000000
(1727245316.357019) vcan0 53E#000054000000
(1727245316.357025) vcan0 53E#000055000000
(1727245316.357035) vcan0 53E#000056000000
(1727245316.357041) vcan0 53E#000057000000
(1727245316.357051) vcan0 53E#000058000000
(1727245316.357056) vcan0 53E#000059000000
(1727245316.357062) vcan0 53E#00005A000000
(1727245316.357075) vcan0 53E#00005B000000
(1727245316.357091) vcan0 53E#00005C000000
(1727245316.357096) vcan0 53E#00005D000000
(1727245316.357106) vcan0 53E#00005E000000
(1727245316.357111) vcan0 53E#00005F000000
(1727245316.357117) vcan0 53E#000060000000
